Freq.	V(n003)
2.00000000000000e+001	3.98405546270523e-004,1.84643972422034e-002
2.09425709610180e+001	4.36825338745730e-004,1.93337727243378e-002
2.19295639228637e+001	4.78948234114939e-004,2.02439985008800e-002
2.29630724299377e+001	5.25130779677167e-004,2.11969817165883e-002
2.40452886923483e+001	5.75763776041851e-004,2.21947167253579e-002
2.51785082358834e+001	6.31275552408147e-004,2.32392888058054e-002
2.63651347711282e+001	6.92135551905320e-004,2.43328779938799e-002
2.76076852920577e+001	7.58858255714350e-004,2.54777630295053e-002
2.89087954149186e+001	8.32007477222088e-004,2.66763254128761e-002
3.02712249687242e+001	9.12201060186839e-004,2.79310535644114e-002
3.16978638492223e+001	1.00011601782751e-003,2.92445470804699e-002
3.31917381487512e+001	1.09649415289600e-003,3.06195210747119e-002
3.47560165749875e+001	1.20214820216136e-003,3.20588105924094e-002
3.63940171721997e+001	1.31796855232952e-003,3.35653750820036e-002
3.81092143592650e+001	1.44493057824669e-003,3.51423029047238e-002
3.99052462993776e+001	1.58410265828645e-003,3.67928158590577e-002
4.17859226170808e+001	1.73665492609508e-003,3.85202736922098e-002
4.37552324789911e+001	1.90386882235472e-003,4.03281785653266e-002
4.58173530553555e+001	2.08714751490132e-003,4.22201794331030e-002
4.79766583803899e+001	2.28802726037578e-003,4.42000762913095e-002
5.02377286301917e+001	2.50818978555273e-003,4.62718242376701e-002
5.26053598379077e+001	2.74947577152878e-003,4.84395372822474e-002
5.50845740667634e+001	3.01389952898997e-003,5.07074918329036e-002
5.76806300625322e+001	3.30366495772483e-003,5.30801297693422e-002
6.03990344080404e+001	3.62118288828743e-003,5.55620610055154e-002
6.32455532033677e+001	3.96908990809721e-003,5.81580654246207e-002
6.62262242965183e+001	4.35026877810326e-003,6.08730940532833e-002
6.93473700905065e+001	4.76787054921351e-003,6.37122693216256e-002
7.26156109540204e+001	5.22533848971208e-003,6.66808842335062e-002
7.60378792641124e+001	5.72643393552118e-003,6.97844002460407e-002
7.96214341106996e+001	6.27526417399274e-003,7.30284436293355e-002
8.33738766940672e+001	6.87631246844344e-003,7.64188000459312e-002
8.73031664480334e+001	7.53447032428107e-003,7.99614070545283e-002
9.14176379229752e+001	8.25507208760373e-003,8.36623442039385e-002
9.57260184645279e+001	9.04393195275568e-003,8.75278203407001e-002
1.00237446725455e+002	9.90738343551644e-003,9.15641577072981e-002
1.04961492049955e+002	1.08523213422485e-002,9.57777723574140e-002
1.09908174771525e+002	1.18862462311195e-002,1.00175150360188e-001
1.15087987467432e+002	1.30173113179420e-002,1.04762819207358e-001
1.20511917214872e+002	1.42543717245338e-002,1.09547313775834e-001
1.26191468896039e+002	1.56070358998694e-002,1.14535136134470e-001
1.32138689601520e+002	1.70857189615498e-002,1.19732708418674e-001
1.38366194183788e+002	1.87016976049394e-002,1.25146317931528e-001
1.44887192014998e+002	2.04671661072065e-002,1.30782053567371e-001
1.51715515005837e+002	2.23952928108730e-002,1.36645732596102e-001
1.58865646944857e+002	2.45002763036577e-002,1.42742816797301e-001
1.66352754220535e+002	2.67974003158540e-002,1.49078316897099e-001
1.74192717991217e+002	2.93030861308713e-002,1.55656684243248e-001
1.82402167871183e+002	3.20349410470555e-002,1.62481688661670e-001
1.90998517204288e+002	3.50118011383905e-002,1.69556281479345e-001
2.00000000000001e+002	3.82537662382001e-002,1.76882442783210e-001
2.09425709610181e+002	4.17822247151795e-002,1.84461012124237e-001
2.19295639228638e+002	4.56198652287782e-002,1.92291502082682e-001
2.29630724299377e+002	4.97906722478042e-002,2.00371894398931e-001
2.40452886923484e+002	5.43199017023728e-002,2.08698418759660e-001
2.51785082358834e+002	5.92340327297215e-002,2.17265314826938e-001
2.63651347711282e+002	6.45606910889989e-002,2.26064578724009e-001
2.76076852920578e+002	7.03285394851921e-002,2.35085695959806e-001
2.89087954149187e+002	7.65671297910483e-002,2.44315363695654e-001
3.02712249687243e+002	8.33067120287734e-002,2.53737206338024e-001
3.16978638492224e+002	9.05779950184537e-002,2.63331489678411e-001
3.31917381487514e+002	9.84118538723474e-002,2.73074840182779e-001
3.47560165749877e+002	1.06838980073485e-001,2.82939977531458e-001
3.63940171721998e+002	1.15889470785916e-001,2.92895470081019e-001
3.81092143592651e+002	1.25592355363270e-001,3.02905524496541e-001
3.99052462993778e+002	1.35975058805217e-001,3.12929822295805e-001
4.17859226170810e+002	1.47062804195881e-001,3.22923417340847e-001
4.37552324789913e+002	1.58877958957658e-001,3.32836709266847e-001
4.58173530553557e+002	1.71439333046687e-001,3.42615508292115e-001
4.79766583803901e+002	1.84761440935057e-001,3.52201206630622e-001
5.02377286301919e+002	1.98853743246680e-001,3.61531070653106e-001
5.26053598379079e+002	2.13719888052540e-001,3.70538665851823e-001
5.50845740667636e+002	2.29356975835287e-001,3.79154423431177e-001
5.76806300625324e+002	2.45754875690029e-001,3.87306352906061e-001
6.03990344080407e+002	2.62895623077474e-001,3.94920899462142e-001
6.32455532033679e+002	2.80752931002954e-001,4.01923938147637e-001
6.62262242965186e+002	2.99291846486569e-001,4.08241889480817e-001
6.93473700905067e+002	3.18468582295789e-001,4.13802933160536e-001
7.26156109540207e+002	3.38230549914318e-001,4.18538288769882e-001
7.60378792641127e+002	3.58516613551863e-001,4.22383525271431e-001
7.96214341106999e+002	3.79257576779682e-001,4.25279855359181e-001
8.33738766940676e+002	4.00376903439723e-001,4.27175366992145e-001
8.73031664480337e+002	4.21791663365663e-001,4.28026143231004e-001
9.14176379229756e+002	4.43413681899328e-001,4.27797223207226e-001
9.57260184645283e+002	4.65150861037285e-001,4.26463361816455e-001
1.00237446725455e+003	4.86908630192906e-001,4.24009553411805e-001
1.04961492049955e+003	5.08591476846535e-001,4.20431294960070e-001
1.09908174771526e+003	5.30104502463949e-001,4.15734576137846e-001
1.15087987467432e+003	5.51354947436218e-001,4.09935596812639e-001
1.20511917214872e+003	5.72253630581963e-001,4.03060225299502e-001
1.26191468896040e+003	5.92716253791163e-001,3.95143222732455e-001
1.32138689601520e+003	6.12664530219945e-001,3.86227268977281e-001
1.38366194183788e+003	6.32027104375350e-001,3.76361833073147e-001
1.44887192014999e+003	6.50740243615688e-001,3.65601935820774e-001
1.51715515005838e+003	6.68748292143183e-001,3.54006853716203e-001
1.58865646944857e+003	6.86003889634746e-001,3.41638812117087e-001
1.66352754220535e+003	7.02467966525498e-001,3.28561711708299e-001
1.74192717991217e+003	7.18109536094268e-001,3.14839926554915e-001
1.82402167871183e+003	7.32905309579209e-001,3.00537204931230e-001
1.90998517204289e+003	7.46839164465162e-001,2.85715696345836e-001
2.00000000000002e+003	7.59901497910400e-001,2.70435120346876e-001
2.09425709610182e+003	7.72088497244659e-001,2.54752085293904e-001
2.19295639228639e+003	7.83401357898414e-001,2.38719558704995e-001
2.29630724299378e+003	7.93845476392469e-001,2.22386485279161e-001
2.40452886923484e+003	8.03429642512944e-001,2.05797544377438e-001
2.51785082358835e+003	8.12165250880595e-001,1.88993035635172e-001
2.63651347711284e+003	8.20065548107380e-001,1.72008879401404e-001
2.76076852920579e+003	8.27144927868325e-001,1.54876717727104e-001
2.89087954149188e+003	8.33418282688386e-001,1.37624101485121e-001
3.02712249687244e+003	8.38900418174759e-001,1.20274749718857e-001
3.16978638492225e+003	8.43605532881977e-001,1.02848868303183e-001
3.31917381487515e+003	8.47546765001399e-001,8.53635162923703e-002
3.47560165749878e+003	8.50735805604314e-001,6.78330097782038e-002
3.63940171722000e+003	8.53182577199574e-001,5.02693545627555e-002
3.81092143592653e+003	8.54894975836590e-001,3.26827003641561e-002
3.99052462993779e+003	8.55878674827197e-001,1.50818105420497e-002
4.17859226170812e+003	8.56136988305449e-001,-2.52545760610759e-003
4.37552324789914e+003	8.55670793221645e-001,-2.01316661078055e-002
4.58173530553559e+003	8.54478508905509e-001,-3.77293067218362e-002
4.79766583803902e+003	8.52556133964227e-001,-5.53103118178356e-002
5.02377286301921e+003	8.49897340936022e-001,-7.28655691014280e-002
5.26053598379081e+003	8.46493629731301e-001,-9.03844438967992e-002
5.50845740667638e+003	8.42334541392841e-001,-1.07854313324535e-001
5.76806300625326e+003	8.37407934024532e-001,-1.25260117605341e-001
6.03990344080409e+003	8.31700322804131e-001,-1.42583934848158e-001
6.32455532033682e+003	8.25197285738248e-001,-1.59804586998052e-001
6.62262242965188e+003	8.17883936168417e-001,-1.76897286061382e-001
6.93473700905070e+003	8.09745461932148e-001,-1.93833331208922e-001
7.26156109540210e+003	8.00767729470630e-001,-2.10579868774693e-001
7.60378792641130e+003	7.90937949022033e-001,-2.27099728388149e-001
7.96214341107002e+003	7.80245394341363e-001,-2.43351349346293e-001
8.33738766940679e+003	7.68682167177765e-001,-2.59288811677886e-001
8.73031664480340e+003	7.56243993100071e-001,-2.74861985991761e-001
9.14176379229759e+003	7.42931031331355e-001,-2.90016814955562e-001
9.57260184645286e+003	7.28748677237362e-001,-3.04695736960490e-001
1.00237446725455e+004	7.13708332281348e-001,-3.18838259075017e-001
1.04961492049956e+004	6.97828112937135e-001,-3.32381681726093e-001
1.09908174771526e+004	6.81133467613878e-001,-3.45261971713250e-001
1.15087987467433e+004	6.63657669477630e-001,-3.57414773316739e-001
1.20511917214873e+004	6.45442153523224e-001,-3.68776539692618e-001
1.26191468896040e+004	6.26536668657328e-001,-3.79285758874509e-001
1.32138689601521e+004	6.06999220087821e-001,-3.88884241060294e-001
1.38366194183789e+004	5.86895784003440e-001,-3.97518427074090e-001
1.44887192015000e+004	5.66299785202149e-001,-4.05140672614146e-001
1.51715515005838e+004	5.45291338603263e-001,-4.11710459746180e-001
1.58865646944858e+004	5.23956266866137e-001,-4.17195486589142e-001
1.66352754220536e+004	5.02384917875107e-001,-4.21572588591837e-001
1.74192717991218e+004	4.80670816767339e-001,-4.24828450294488e-001
1.82402167871184e+004	4.58909196589058e-001,-4.26960074808478e-001
1.90998517204289e+004	4.37195458756937e-001,-4.27974988947028e-001
2.00000000000000e+004	4.15623618642040e-001,-4.27891174269319e-001
