Freq.	V(n003)
2.00000000000000e+001	6.54335626113248e-005,7.16229793383215e-003
2.09425709610180e+001	7.17460216198585e-005,7.49979276164052e-003
2.19295639228637e+001	7.86674036519839e-005,7.85318524975808e-003
2.29630724299377e+001	8.62564379704022e-005,8.22322344964186e-003
2.40452886923483e+001	9.45775161834509e-005,8.61069049223607e-003
2.51785082358834e+001	1.03701237780201e-004,9.01640621529083e-003
2.63651347711282e+001	1.13705008144593e-004,9.44122886353669e-003
2.76076852920577e+001	1.24673694080730e-004,9.88605686458074e-003
2.89087954149186e+001	1.36700342360685e-004,1.03518306834415e-002
3.02712249687242e+001	1.49886967330372e-004,1.08395347586814e-002
3.16978638492223e+001	1.64345414182319e-004,1.13501995231236e-002
3.31917381487512e+001	1.80198305130898e-004,1.18849035121563e-002
3.47560165749875e+001	1.97580076410616e-004,1.24447755626200e-002
3.63940171721997e+001	2.16638114766538e-004,1.30309971052531e-002
3.81092143592650e+001	2.37534002923451e-004,1.36448045536149e-002
3.99052462993776e+001	2.60444884412966e-004,1.42874917923271e-002
4.17859226170808e+001	2.85564959111942e-004,1.49604127673564e-002
4.37552324789911e+001	3.13107121908231e-004,1.56649841808995e-002
4.58173530553555e+001	3.43304758068382e-004,1.64026882932252e-002
4.79766583803899e+001	3.76413710144384e-004,1.71750758335565e-002
5.02377286301917e+001	4.12714432631310e-004,1.79837690217436e-002
5.26053598379077e+001	4.52514352083728e-004,1.88304647020614e-002
5.50845740667634e+001	4.96150452025404e-004,1.97169375899584e-002
5.76806300625322e+001	5.43992103753996e-004,2.06450436319710e-002
6.03990344080404e+001	5.96444166060333e-004,2.16167234782795e-002
6.32455532033677e+001	6.53950378961267e-004,2.26340060665008e-002
6.62262242965183e+001	7.16997078796568e-004,2.36990123142688e-002
6.93473700905065e+001	7.86117264475114e-004,2.48139589169165e-002
7.26156109540204e+001	8.61895047284422e-004,2.59811622451178e-002
7.60378792641124e+001	9.44970519511080e-004,2.72030423356407e-002
7.96214341106996e+001	1.03604508016786e-003,2.84821269663652e-002
8.33738766940672e+001	1.13588725939532e-003,2.98210558043885e-002
8.73031664480334e+001	1.24533908660923e-003,3.12225846133311e-002
9.14176379229752e+001	1.36532305120609e-003,3.26895895028058e-002
9.57260184645279e+001	1.49684970861971e-003,3.42250711993726e-002
1.00237446725455e+002	1.64102598874334e-003,3.58321593140804e-002
1.04961492049955e+002	1.79906426818664e-003,3.75141165768402e-002
1.09908174771525e+002	1.97229227251682e-003,3.92743430022703e-002
1.15087987467432e+002	2.16216387951725e-003,4.11163799452167e-002
1.20511917214872e+002	2.37027089955897e-003,4.30439139967622e-002
1.26191468896039e+002	2.59835591438023e-003,4.50607806630721e-002
1.32138689601520e+002	2.84832626085277e-003,4.71709677597439e-002
1.38366194183788e+002	3.12226925160994e-003,4.93786184432744e-002
1.44887192014998e+002	3.42246872962692e-003,5.16880337886657e-002
1.51715515005837e+002	3.75142305885947e-003,5.41036748078684e-002
1.58865646944857e+002	4.11186465771312e-003,5.66301637875072e-002
1.66352754220535e+002	4.50678118624187e-003,5.92722848059271e-002
1.74192717991217e+002	4.93943850133104e-003,6.20349832688014e-002
1.82402167871183e+002	5.41340549641590e-003,6.49233642791097e-002
1.90998517204288e+002	5.93258094317657e-003,6.79426896309595e-002
2.00000000000001e+002	6.50122245170592e-003,7.10983731872197e-002
2.09425709610181e+002	7.12397766236061e-003,7.43959743679977e-002
2.19295639228638e+002	7.80591777626384e-003,7.78411894403546e-002
2.29630724299377e+002	8.55257352150510e-003,8.14398402590808e-002
2.40452886923484e+002	9.36997363761683e-003,8.51978600636458e-002
2.51785082358834e+002	1.02646859408907e-002,8.91212758874413e-002
2.63651347711282e+002	1.12438610063476e-002,9.32161870820947e-002
2.76076852920578e+002	1.23152784673328e-002,9.74887394020041e-002
2.89087954149187e+002	1.34873958891977e-002,1.01945094032541e-001
3.02712249687243e+002	1.47694001175753e-002,1.06591390880022e-001
3.16978638492224e+002	1.61712609323337e-002,1.11433705373262e-001
3.31917381487514e+002	1.77037867531707e-002,1.16477997956366e-001
3.47560165749877e+002	1.93786820395261e-002,1.21730055381887e-001
3.63940171721998e+002	2.12086059033769e-002,1.27195422844597e-001
3.81092143592651e+002	2.32072313057555e-002,1.32879325931741e-001
3.99052462993778e+002	2.53893040335903e-002,1.38786581309156e-001
4.17859226170810e+002	2.77707004498982e-002,1.44921495018684e-001
4.37552324789913e+002	3.03684827747996e-002,1.51287747236548e-001
4.58173530553557e+002	3.32009503850619e-002,1.57888262341617e-001
4.79766583803901e+002	3.62876853144015e-002,1.64725063175398e-001
5.02377286301919e+002	3.96495897951360e-002,1.71799108451932e-001
5.26053598379079e+002	4.33089133051257e-002,1.79110112407419e-001
5.50845740667636e+002	4.72892661755302e-002,1.86656345979645e-001
5.76806300625324e+002	5.16156163808244e-002,1.94434419091096e-001
6.03990344080407e+002	5.63142656825083e-002,2.02439043993372e-001
6.32455532033679e+002	6.14128008462543e-002,2.10662780131209e-001
6.62262242965186e+002	6.69400152186070e-002,2.19095761619240e-001
6.93473700905067e+002	7.29257955599522e-002,2.27725409209605e-001
7.26156109540207e+002	7.94009687187676e-002,2.36536129576998e-001
7.60378792641127e+002	8.63971025395179e-002,2.45509005868129e-001
7.96214341106999e+002	9.39462553724795e-002,2.54621484756185e-001
8.33738766940676e+002	1.02080668755486e-001,2.63847066697968e-001
8.73031664480337e+002	1.10832398328713e-001,2.73155007688608e-001
9.14176379229756e+002	1.20232878891677e-001,2.82510042504248e-001
9.57260184645283e+002	1.30312420784001e-001,2.91872141153530e-001
1.00237446725455e+003	1.41099636529704e-001,3.01196311935419e-001
1.04961492049955e+003	1.52620798976746e-001,3.10432466008005e-001
1.09908174771526e+003	1.64899135014227e-001,3.19525359567141e-001
1.15087987467432e+003	1.77954062349826e-001,3.28414630446856e-001
1.20511917214872e+003	1.91800380724929e-001,3.37034945999316e-001
1.26191468896040e+003	2.06447433222342e-001,3.45316278297078e-001
1.32138689601520e+003	2.21898257803517e-001,3.53184320840775e-001
1.38366194183788e+003	2.38148753649550e-001,3.60561057897969e-001
1.44887192014999e+003	2.55186890955020e-001,3.67365493247272e-001
1.51715515005838e+003	2.72991996159913e-001,3.73514539443763e-001
1.58865646944857e+003	2.91534146790869e-001,3.78924061856117e-001
1.66352754220535e+003	3.10773710704594e-001,3.83510063883935e-001
1.74192717991217e+003	3.30661063211459e-001,3.87189991320007e-001
1.82402167871183e+003	3.51136512026838e-001,3.89884125289966e-001
1.90998517204289e+003	3.72130454118637e-001,3.91517025209512e-001
2.00000000000002e+003	3.93563780351678e-001,3.92018976445765e-001
2.09425709610182e+003	4.15348533657686e-001,3.91327392559400e-001
2.19295639228639e+003	4.37388814802178e-001,3.89388119770400e-001
2.29630724299378e+003	4.59581917407305e-001,3.86156592109813e-001
2.40452886923484e+003	4.81819661613599e-001,3.81598789837882e-001
2.51785082358835e+003	5.03989884592532e-001,3.75691961083580e-001
2.63651347711284e+003	5.25978037001000e-001,3.68425076938148e-001
2.76076852920579e+003	5.47668828211620e-001,3.59799002766250e-001
2.89087954149188e+003	5.68947860341132e-001,3.49826382392340e-001
3.02712249687244e+003	5.89703192011296e-001,3.38531246036088e-001
3.16978638492225e+003	6.09826777350364e-001,3.25948366330121e-001
3.31917381487515e+003	6.29215733584491e-001,3.12122398456445e-001
3.47560165749878e+003	6.47773401002125e-001,2.97106849570522e-001
3.63940171722000e+003	6.65410171227839e-001,2.80962928693599e-001
3.81092143592653e+003	6.82044072649221e-001,2.63758330898189e-001
3.99052462993779e+003	6.97601114548995e-001,2.45566008947061e-001
4.17859226170812e+003	7.12015403160506e-001,2.26462981898629e-001
4.37552324789914e+003	7.25229052823576e-001,2.06529224090430e-001
4.58173530553559e+003	7.37191923223785e-001,1.85846670010297e-001
4.79766583803902e+003	7.47861219133628e-001,1.64498361556305e-001
5.02377286301921e+003	7.57200992128814e-001,1.42567754735378e-001
5.26053598379081e+003	7.65181584586330e-001,1.20138193533904e-001
5.50845740667638e+003	7.71779055160025e-001,9.72925499682147e-002
5.76806300625326e+003	7.76974622216642e-001,7.41130215105405e-002
6.03990344080409e+003	7.80754157759529e-001,5.06810703803437e-002
6.32455532033682e+003	7.83107759505450e-001,2.70774836750158e-002
6.62262242965188e+003	7.84029423300854e-001,3.38252898926444e-003
6.93473700905070e+003	7.83516832194651e-001,-2.03238230104312e-002
7.26156109540210e+003	7.81571272389980e-001,-4.39616397010054e-002
7.60378792641130e+003	7.78197680089032e-001,-6.74507630561137e-002
7.96214341107002e+003	7.73404816997765e-001,-9.07105735226914e-002
8.33738766940679e+003	7.67205566031291e-001,-1.13659812280703e-001
8.73031664480340e+003	7.59617332624257e-001,-1.36216491128093e-001
9.14176379229759e+003	7.50662531102776e-001,-1.58297916363094e-001
9.57260184645286e+003	7.40369129963667e-001,-1.79820849043567e-001
1.00237446725455e+004	7.28771224842035e-001,-2.00701818829637e-001
1.04961492049956e+004	7.15909603701387e-001,-2.20857602245232e-001
1.09908174771526e+004	7.01832265676857e-001,-2.40205868683119e-001
1.15087987467433e+004	6.86594853397791e-001,-2.58665988986083e-001
1.20511917214873e+004	6.70260958862571e-001,-2.76159992248202e-001
1.26191468896040e+004	6.52902265337285e-001,-2.92613647013390e-001
1.32138689601521e+004	6.34598492498893e-001,-3.07957633848777e-001
1.38366194183789e+004	6.15437119185882e-001,-3.22128767982122e-001
1.44887192015000e+004	5.95512867499486e-001,-3.35071224007606e-001
1.51715515005838e+004	5.74926943236225e-001,-3.46737710256047e-001
1.58865646944858e+004	5.53786040122908e-001,-3.57090538866562e-001
1.66352754220536e+004	5.32201128269702e-001,-3.66102539278491e-001
1.74192717991218e+004	5.10286059725169e-001,-3.73757767924896e-001
1.82402167871184e+004	4.88156035036481e-001,-3.80051975194447e-001
1.90998517204289e+004	4.65925983378151e-001,-3.84992801771026e-001
2.00000000000000e+004	4.43708914372163e-001,-3.88599689514323e-001
